EXPLAIN
TAG	EISPOT
TITLE	LABEL	Potentiostatic EIS	Test &Identifier
DATE	LABEL	6/11/2025	Date
TIME	LABEL	15:09:51	Time
NOTES	NOTES	1	&Notes...
	
PSTAT	PSTAT	IFC1000-09015	Potentiostat
VDC	POTEN	0.00000E+000	T	DC &Voltage (V)
FREQINIT	QUANT	5.00000E+002	Initial Fre&q. (Hz)
FREQFINAL	QUANT	1.00000E-002	Final Fre&q. (Hz)
PTSPERDEC	QUANT	1.00000E+001	Points/&decade
VAC	QUANT	1.00000E+001	AC &Voltage (mV rms)
AREA	QUANT	7.80000E-001	&Area (cm^2)
CONDIT	TWOPARAM	F	1.50000E+001	0.00000E+000	Conditionin&g	Time(s)	E(V)
DELAY	TWOPARAM	T	2.00000E+001	0.00000E+000	Init. De&lay	Time(s)	Stab.(mV/s)
SPEED	SELECTOR	1	&Optimize for:
ZGUESS	QUANT	1.60000E+003	E&stimated Z (ohms)
OCVCURVE	TABLE	80
	Pt	T	Vf	Vm	Ach	Over
	#	s	V vs. Ref.	V	V	bits
	0	0.25	-4.13369E-005	-4.13369E-005	0.00000E+000	...........
	1	0.5	-4.13199E-005	-4.04465E-005	0.00000E+000	...........
	2	0.75	-4.12260E-005	-4.01566E-005	0.00000E+000	...........
	3	1	-4.10008E-005	-4.01482E-005	0.00000E+000	...........
	4	1.25	-4.07054E-005	-4.10250E-005	0.00000E+000	...........
	5	1.5	-4.05065E-005	-4.07935E-005	0.00000E+000	...........
	6	1.75	-4.05064E-005	-4.10680E-005	0.00000E+000	...........
	7	2	-4.06362E-005	-4.03407E-005	0.00000E+000	...........
	8	2.25	-4.07650E-005	-4.18006E-005	0.00000E+000	...........
	9	2.5	-4.08656E-005	-4.08852E-005	0.00000E+000	...........
	10	2.75	-4.09567E-005	-4.01235E-005	0.00000E+000	...........
	11	3	-4.09285E-005	-3.87697E-005	0.00000E+000	...........
	12	3.25	-4.06467E-005	-4.03077E-005	0.00000E+000	...........
	13	3.5	-4.02313E-005	-4.03894E-005	0.00000E+000	...........
	14	3.75	-3.99784E-005	-4.04311E-005	0.00000E+000	...........
	15	4	-3.99982E-005	-4.01679E-005	0.00000E+000	...........
	16	4.25	-4.01580E-005	-4.11177E-005	0.00000E+000	...........
	17	4.5	-4.03379E-005	-4.06426E-005	0.00000E+000	...........
	18	4.75	-4.05166E-005	-4.09626E-005	0.00000E+000	...........
	19	5	-4.06671E-005	-4.04215E-005	0.00000E+000	...........
	20	5.25	-4.07258E-005	-3.99140E-005	0.00000E+000	...........
	21	5.5	-4.06343E-005	-3.96345E-005	0.00000E+000	...........
	22	5.75	-4.03846E-005	-3.90940E-005	0.00000E+000	...........
	23	6	-4.00321E-005	-3.91471E-005	0.00000E+000	...........
	24	6.25	-3.96697E-005	-3.92048E-005	0.00000E+000	...........
	25	6.5	-3.93999E-005	-3.97499E-005	0.00000E+000	...........
	26	6.75	-3.93013E-005	-3.98236E-005	0.00000E+000	...........
	27	7	-3.93847E-005	-4.02210E-005	0.00000E+000	...........
	28	7.25	-3.95769E-005	-3.95214E-005	0.00000E+000	...........
	29	7.5	-3.97643E-005	-4.03647E-005	0.00000E+000	...........
	30	7.75	-3.98745E-005	-3.92822E-005	0.00000E+000	...........
	31	8	-3.99035E-005	-4.03184E-005	0.00000E+000	...........
	32	8.25	-3.98729E-005	-3.88251E-005	0.00000E+000	...........
	33	8.5	-3.97937E-005	-4.00245E-005	0.00000E+000	...........
	34	8.75	-3.96974E-005	-3.98390E-005	0.00000E+000	...........
	35	9	-3.96702E-005	-4.05125E-005	0.00000E+000	...........
	36	9.25	-3.97745E-005	-4.01946E-005	0.00000E+000	...........
	37	9.5	-3.99716E-005	-4.06466E-005	0.00000E+000	...........
	38	9.75	-4.01537E-005	-3.91694E-005	0.00000E+000	...........
	39	10	-4.02111E-005	-4.03524E-005	0.00000E+000	...........
	40	10.25	-4.01203E-005	-3.91761E-005	0.00000E+000	...........
	41	10.5	-3.99632E-005	-4.01786E-005	0.00000E+000	...........
	42	10.75	-3.98442E-005	-4.01259E-005	0.00000E+000	...........
	43	11	-3.98472E-005	-4.09626E-005	0.00000E+000	...........
	44	11.25	-3.99897E-005	-3.96505E-005	0.00000E+000	...........
	45	11.5	-4.01522E-005	-3.97322E-005	0.00000E+000	...........
	46	11.75	-4.01903E-005	-4.05379E-005	0.00000E+000	...........
	47	12	-4.01417E-005	-4.05586E-005	0.00000E+000	...........
	48	12.25	-4.01610E-005	-4.06216E-005	0.00000E+000	...........
	49	12.5	-4.02951E-005	-4.09356E-005	0.00000E+000	...........
	50	12.75	-4.04802E-005	-4.08765E-005	0.00000E+000	...........
	51	13	-4.06576E-005	-4.10476E-005	0.00000E+000	...........
	52	13.25	-4.07922E-005	-4.04822E-005	0.00000E+000	...........
	53	13.5	-4.08375E-005	-4.01035E-005	0.00000E+000	...........
	54	13.75	-4.07454E-005	-3.99190E-005	0.00000E+000	...........
	55	14	-4.05176E-005	-3.93412E-005	0.00000E+000	...........
	56	14.25	-4.02069E-005	-3.93799E-005	0.00000E+000	...........
	57	14.5	-3.98983E-005	-4.01689E-005	0.00000E+000	...........
	58	14.75	-3.96992E-005	-3.94937E-005	0.00000E+000	...........
	59	15	-3.96514E-005	-3.98803E-005	0.00000E+000	...........
	60	15.25	-3.96982E-005	-4.03157E-005	0.00000E+000	...........
	61	15.5	-3.98099E-005	-4.09529E-005	0.00000E+000	...........
	62	15.75	-4.00200E-005	-4.07577E-005	0.00000E+000	...........
	63	16	-4.02971E-005	-4.03057E-005	0.00000E+000	...........
	64	16.25	-4.05100E-005	-4.03591E-005	0.00000E+000	...........
	65	16.5	-4.05534E-005	-3.96335E-005	0.00000E+000	...........
	66	16.75	-4.04300E-005	-4.00071E-005	0.00000E+000	...........
	67	17	-4.02246E-005	-3.98843E-005	0.00000E+000	...........
	68	17.25	-4.00565E-005	-4.06183E-005	0.00000E+000	...........
	69	17.5	-4.00069E-005	-3.97245E-005	0.00000E+000	...........
	70	17.75	-4.00293E-005	-3.92935E-005	0.00000E+000	...........
	71	18	-3.99874E-005	-3.96011E-005	0.00000E+000	...........
	72	18.25	-3.98609E-005	-4.08335E-005	0.00000E+000	...........
	73	18.5	-3.97919E-005	-3.92541E-005	0.00000E+000	...........
	74	18.75	-3.98433E-005	-4.04648E-005	0.00000E+000	...........
	75	19	-3.99458E-005	-4.07831E-005	0.00000E+000	...........
	76	19.25	-4.00900E-005	-4.07347E-005	0.00000E+000	...........
	77	19.5	-4.03032E-005	-4.08625E-005	0.00000E+000	...........
	78	19.75	-4.05304E-005	-4.07811E-005	0.00000E+000	...........
	79	20	-4.06880E-005	-4.03587E-005	0.00000E+000	...........
EOC	QUANT	-4.068799E-005	Open Circuit (V)
PSTATMODEL	IQUANT	48	Pstat Model
PSTATSECTION	LABEL	IFC1000-09015	Pstat Section
PSTATSERIALNO	LABEL	09015	Pstat Serial Number
CTRLMODE	IQUANT	1	Control Mode
ELECTROMETER	IQUANT	0	RE=0 or CS=1
IESTAB	IQUANT	0	I/E Stability
CASPEED	IQUANT	3	Control Amp Speed
CONVENTION	IQUANT	1	Current Convention
ICHRANGE	IQUANT	2	Ich Range
ICHRANGEMODE	TOGGLE	F	Ich Auto Range
ICHOFFSETENABLE	TOGGLE	T	Ich Offset Enable
ICHOFFSET	QUANT	0	Ich Offset (V)
ICHFILTER	IQUANT	4	Ich Filter
VCHRANGE	IQUANT	2	Vch Range
VCHRANGEMODE	TOGGLE	F	Vch Auto Range
VCHOFFSETENABLE	TOGGLE	T	Vch Offset Enable
VCHOFFSET	QUANT	0	Vch Offset (V)
VCHFILTER	IQUANT	4	Vch Filter
IERANGELOWERLIMIT	IQUANT	4	I/E Range Lower Limit
IERANGEMODE	TOGGLE	F	I/E AutoRange
IERANGE	IQUANT	5	I/E Range
ACHSELECT	IQUANT	0	Ach Select
ACHRANGE	IQUANT	2	Ach Range
ACHOFFSETENABLE	TOGGLE	F	Ach Offset Enable
ACHOFFSET	QUANT	0	Ach Offset (V)
ACHFILTER	IQUANT	1	Ach Filter
CABLEID	IQUANT	14	Cable ID
DCCALDATE	LABEL	5/11/2025	DC Calibration Date
ACCALDATE	LABEL	8/25/2015	AC Calibration Date
FRAMEWORKVERSION	QUANT	7.03	Framework Version
INSTRUMENTVERSION	LABEL	4.15	Instrument Version
ZCURVE	TABLE
	Pt	Time	Freq	Zreal	Zimag	Zsig	Zmod	Zphz	Idc	Vdc	IERange
	#	s	Hz	ohm	ohm	V	ohm	°	A	V	#
	0	1	502.2321	2977.642	-0.2464177	1	2977.642	-0.0047416	1.842965E-008	-7.453231E-005	7
	1	2	395.3313	2976.324	0.2351803	1	2976.324	0.0045273	3.036335E-008	-9.107756E-005	7
	2	3	315.5048	2977.037	0.970522	1	2977.038	0.0186786	2.446935E-008	-7.279648E-005	7
	3	5	249.3351	2982.311	-5.756465	1	2982.316	-0.1105924	2.346368E-008	-7.301736E-005	7
	4	6	198.6229	2975.423	-0.0409754	1	2975.423	-0.000789	2.449817E-008	-9.164827E-005	7
	5	7	158.0056	2976.398	-0.5159684	1	2976.398	-0.0099324	1.923491E-008	-7.313074E-005	7
	6	10	125.558	2973.555	-0.5628993	1	2973.555	-0.0108462	2.289573E-008	-8.664606E-005	7
	7	11	99.734	2975.129	-0.264482	1	2975.129	-0.0050935	-7.693036E-008	-0.0003666	7
	8	12	79.44915	2987.808	0.0651276	1	2987.808	0.0012489	-7.647767E-008	-0.0003859	7
	9	14	62.91946	2968.825	6.533785	1	2968.833	0.1260962	-7.298418E-008	-0.0003687	7
	10	15	49.86702	2989.04	-45.59234	1	2989.388	-0.8738745	-7.569245E-008	-0.0003691	7
	11	16	38.42213	2969.33	-5.759107	1	2969.336	-0.1111268	-7.298463E-008	-0.0003824	7
	12	17	31.25	2974.394	-8.010805	1	2974.405	-0.1543119	-7.245504E-008	-0.0003653	7
	13	19	24.93351	2974.953	0.3259448	1	2974.953	0.0062775	-7.645398E-008	-0.0003687	7
	14	20	20.03205	2976.663	2.617453	1	2976.665	0.0503816	-7.626842E-008	-0.0003846	7
	15	21	15.625	2976.642	1.506146	1	2976.643	0.028991	-7.719107E-008	-0.0003647	7
	16	23	12.46675	2975.727	0.4962969	1	2975.727	0.0095559	-7.558332E-008	-0.0003695	7
	17	24	9.9734	2975.51	-0.1838487	1	2975.51	-0.0035402	-7.478397E-008	-0.0003671	7
	18	26	7.971939	2974.925	0.4741634	1	2974.925	0.0091322	-7.5278E-008	-0.000367	7
	19	27	6.351626	2975.306	-0.986358	1	2975.306	-0.0189944	-7.279631E-008	-0.0003817	7
	20	29	5.013369	2974.896	-0.1551189	1	2974.896	-0.0029876	-7.524983E-008	-0.0003636	7
	21	31	3.985969	2974.691	0.7036027	1	2974.691	0.0135521	-7.502466E-008	-0.0003659	7
	22	34	3.175813	2973.541	-0.0117126	1	2973.541	-0.0002257	-7.337429E-008	-0.0003811	7
	23	37	2.485419	2973.562	0.0334371	1	2973.562	0.0006443	-7.416526E-008	-0.0003732	7
	24	40	1.99553	2973.103	-0.0088528	1	2973.103	-0.0001706	-7.404551E-008	-0.0003712	7
	25	43	1.583615	2972.031	0.1811547	1	2972.031	0.0034924	-7.410883E-008	-0.0003721	7
	26	48	1.258052	2972.449	0.0366002	1	2972.449	0.0007055	-7.351011E-008	-0.0003723	7
	27	53	0.997765	2972.779	0.0350895	1	2972.779	0.0006763	-7.360023E-008	-0.0003721	7
	28	58	0.7927448	2971.973	0.1613085	1	2971.973	0.0031098	-7.349831E-008	-0.0003725	7
	29	64	0.6300403	2971.332	0.0521577	1	2971.332	0.0010057	-7.297775E-008	-0.0003733	7
	30	71	0.5008013	2972.448	0.107937	1	2972.448	0.0020806	-7.241032E-008	-0.0003737	7
	31	81	0.3985969	2970.785	0.2317404	1	2970.785	0.0044694	-7.221939E-008	-0.0003706	7
	32	92	0.316723	2986.949	0.1737322	1	2986.949	0.0033325	-7.098208E-008	-0.0003686	7
	33	105	0.2514753	2984.19	0.0034822	1	2984.19	6.685689E-005	-7.069909E-008	-0.0003685	7
	34	122	0.1992985	2983.109	0.1707945	1	2983.109	0.0032804	-6.953642E-008	-0.0003671	7
	35	143	0.1583615	2980.951	0.1110801	1	2980.951	0.002135	-6.846079E-008	-0.0003658	7
	36	168	0.1257377	2978.634	0.0738955	1	2978.634	0.0014214	-6.665624E-008	-0.0003645	7
	37	197	0.099819	2973.636	0.0457032	1	2973.636	0.0008806	-6.580994E-008	-0.000362	7
	38	229	0.0792879	2969.562	0.0783769	1	2969.562	0.0015122	-6.536359E-008	-0.0003591	7
	39	268	0.063004	2963.684	0.1990852	1	2963.684	0.0038488	-6.344132E-008	-0.0003562	7
	40	316	0.0500374	2960.792	0.0868784	1	2960.792	0.0016812	-6.186205E-008	-0.000353	7
	41	377	0.0397246	2964.645	-0.1456964	1	2964.645	-0.0028158	-5.898436E-008	-0.0003504	7
	42	454	0.0315529	2963.885	0.1037282	1	2963.885	0.0020052	-5.825012E-008	-0.0003438	7
	43	550	0.0250615	2964.559	0.1537525	1	2964.559	0.0029716	-5.451938E-008	-0.000338	7
	44	671	0.0199095	2963.336	0.4688079	1	2963.336	0.0090644	-5.217822E-008	-0.000331	7
	45	823	0.0158148	2962.6	-0.2761705	1	2962.6	-0.0053411	-4.884195E-008	-0.0003229	7
	46	1013	0.0125603	2965.265	-0.1430137	1	2965.265	-0.0027634	-4.634116E-008	-0.0003163	7
	47	1253	0.0099768	2962.185	0.1495616	1	2962.185	0.0028929	-4.3707E-008	-0.0003069	7
