EXPLAIN
TAG	EISPOT
TITLE	LABEL	Potentiostatic EIS	Test &Identifier
DATE	LABEL	5/11/2025	Date
TIME	LABEL	15:23:47	Time
NOTES	NOTES	1	&Notes...
	
PSTAT	PSTAT	IFC1000-09015	Potentiostat
VDC	POTEN	0.00000E+000	T	DC &Voltage (V)
FREQINIT	QUANT	5.00000E+002	Initial Fre&q. (Hz)
FREQFINAL	QUANT	1.00000E-002	Final Fre&q. (Hz)
PTSPERDEC	QUANT	1.00000E+001	Points/&decade
VAC	QUANT	1.00000E+001	AC &Voltage (mV rms)
AREA	QUANT	7.80000E-001	&Area (cm^2)
CONDIT	TWOPARAM	F	1.50000E+001	0.00000E+000	Conditionin&g	Time(s)	E(V)
DELAY	TWOPARAM	T	2.00000E+001	0.00000E+000	Init. De&lay	Time(s)	Stab.(mV/s)
SPEED	SELECTOR	1	&Optimize for:
ZGUESS	QUANT	1.60000E+003	E&stimated Z (ohms)
OCVCURVE	TABLE	80
	Pt	T	Vf	Vm	Ach	Over
	#	s	V vs. Ref.	V	V	bits
	0	0.25	-7.86851E-005	-7.86851E-005	0.00000E+000	...........
	1	0.5	-7.86914E-005	-7.90154E-005	0.00000E+000	...........
	2	0.75	-7.87277E-005	-7.92025E-005	0.00000E+000	...........
	3	1	-7.88221E-005	-7.93576E-005	0.00000E+000	...........
	4	1.25	-7.89769E-005	-7.96916E-005	0.00000E+000	...........
	5	1.5	-7.91647E-005	-7.94103E-005	0.00000E+000	...........
	6	1.75	-7.93157E-005	-7.83708E-005	0.00000E+000	...........
	7	2	-7.93056E-005	-7.78624E-005	0.00000E+000	...........
	8	2.25	-7.90516E-005	-7.78600E-005	0.00000E+000	...........
	9	2.5	-7.86574E-005	-7.90530E-005	0.00000E+000	...........
	10	2.75	-7.83824E-005	-7.91561E-005	0.00000E+000	...........
	11	3	-7.83845E-005	-7.82407E-005	0.00000E+000	...........
	12	3.25	-7.85496E-005	-7.89840E-005	0.00000E+000	...........
	13	3.5	-7.86740E-005	-7.82771E-005	0.00000E+000	...........
	14	3.75	-7.86869E-005	-7.84272E-005	0.00000E+000	...........
	15	4	-7.86181E-005	-7.83274E-005	0.00000E+000	...........
	16	4.25	-7.85065E-005	-7.78367E-005	0.00000E+000	...........
	17	4.5	-7.83904E-005	-7.90631E-005	0.00000E+000	...........
	18	4.75	-7.83026E-005	-7.68415E-005	0.00000E+000	...........
	19	5	-7.82047E-005	-7.77720E-005	0.00000E+000	...........
	20	5.25	-7.80840E-005	-8.07058E-005	0.00000E+000	...........
	21	5.5	-7.81202E-005	-7.78054E-005	0.00000E+000	...........
	22	5.75	-7.83967E-005	-7.91985E-005	0.00000E+000	...........
	23	6	-7.86800E-005	-7.81797E-005	0.00000E+000	...........
	24	6.25	-7.87538E-005	-7.77229E-005	0.00000E+000	...........
	25	6.5	-7.86269E-005	-7.89123E-005	0.00000E+000	...........
	26	6.75	-7.84465E-005	-7.82664E-005	0.00000E+000	...........
	27	7	-7.83657E-005	-7.88872E-005	0.00000E+000	...........
	28	7.25	-7.84017E-005	-7.80052E-005	0.00000E+000	...........
	29	7.5	-7.84546E-005	-7.84832E-005	0.00000E+000	...........
	30	7.75	-7.84267E-005	-7.70437E-005	0.00000E+000	...........
	31	8	-7.83134E-005	-8.00282E-005	0.00000E+000	...........
	32	8.25	-7.82395E-005	-7.75014E-005	0.00000E+000	...........
	33	8.5	-7.82334E-005	-7.57182E-005	0.00000E+000	...........
	34	8.75	-7.81064E-005	-7.97320E-005	0.00000E+000	...........
	35	9	-7.78953E-005	-7.87375E-005	0.00000E+000	...........
	36	9.25	-7.78920E-005	-7.69083E-005	0.00000E+000	...........
	37	9.5	-7.80753E-005	-7.96796E-005	0.00000E+000	...........
	38	9.75	-7.82790E-005	-8.04572E-005	0.00000E+000	...........
	39	10	-7.86091E-005	-7.96466E-005	0.00000E+000	...........
	40	10.25	-7.90880E-005	-7.86921E-005	0.00000E+000	...........
	41	10.5	-7.93633E-005	-7.56248E-005	0.00000E+000	...........
	42	10.75	-7.90934E-005	-7.83228E-005	0.00000E+000	...........
	43	11	-7.84224E-005	-7.76422E-005	0.00000E+000	...........
	44	11.25	-7.78511E-005	-7.81403E-005	0.00000E+000	...........
	45	11.5	-7.76677E-005	-7.84392E-005	0.00000E+000	...........
	46	11.75	-7.77682E-005	-7.73630E-005	0.00000E+000	...........
	47	12	-7.78954E-005	-7.72085E-005	0.00000E+000	...........
	48	12.25	-7.78718E-005	-7.78927E-005	0.00000E+000	...........
	49	12.5	-7.77479E-005	-7.82897E-005	0.00000E+000	...........
	50	12.75	-7.77396E-005	-7.97066E-005	0.00000E+000	...........
	51	13	-7.80108E-005	-7.99201E-005	0.00000E+000	...........
	52	13.25	-7.85345E-005	-7.96179E-005	0.00000E+000	...........
	53	13.5	-7.90724E-005	-7.81586E-005	0.00000E+000	...........
	54	13.75	-7.93396E-005	-7.93326E-005	0.00000E+000	...........
	55	14	-7.92998E-005	-7.94801E-005	0.00000E+000	...........
	56	14.25	-7.92025E-005	-8.01240E-005	0.00000E+000	...........
	57	14.5	-7.92705E-005	-7.98374E-005	0.00000E+000	...........
	58	14.75	-7.94753E-005	-7.91778E-005	0.00000E+000	...........
	59	15	-7.96203E-005	-7.88089E-005	0.00000E+000	...........
	60	15.25	-7.95373E-005	-7.76138E-005	0.00000E+000	...........
	61	15.5	-7.91869E-005	-7.75051E-005	0.00000E+000	...........
	62	15.75	-7.86782E-005	-7.85410E-005	0.00000E+000	...........
	63	16	-7.82453E-005	-7.82430E-005	0.00000E+000	...........
	64	16.25	-7.80465E-005	-7.72255E-005	0.00000E+000	...........
	65	16.5	-7.80075E-005	-7.89223E-005	0.00000E+000	...........
	66	16.75	-7.80155E-005	-7.78817E-005	0.00000E+000	...........
	67	17	-7.80409E-005	-7.70784E-005	0.00000E+000	...........
	68	17.25	-7.80131E-005	-7.81283E-005	0.00000E+000	...........
	69	17.5	-7.78891E-005	-7.72092E-005	0.00000E+000	...........
	70	17.75	-7.77641E-005	-7.88596E-005	0.00000E+000	...........
	71	18	-7.77429E-005	-7.71141E-005	0.00000E+000	...........
	72	18.25	-7.77702E-005	-7.64135E-005	0.00000E+000	...........
	73	18.5	-7.76736E-005	-7.75421E-005	0.00000E+000	...........
	74	18.75	-7.74397E-005	-7.73373E-005	0.00000E+000	...........
	75	19	-7.72778E-005	-7.84716E-005	0.00000E+000	...........
	76	19.25	-7.73650E-005	-7.89470E-005	0.00000E+000	...........
	77	19.5	-7.77182E-005	-7.94964E-005	0.00000E+000	...........
	78	19.75	-7.82433E-005	-7.97743E-005	0.00000E+000	...........
	79	20	-7.87836E-005	-7.89163E-005	0.00000E+000	...........
EOC	QUANT	-7.87836E-005	Open Circuit (V)
PSTATMODEL	IQUANT	48	Pstat Model
PSTATSECTION	LABEL	IFC1000-09015	Pstat Section
PSTATSERIALNO	LABEL	09015	Pstat Serial Number
CTRLMODE	IQUANT	1	Control Mode
ELECTROMETER	IQUANT	0	RE=0 or CS=1
IESTAB	IQUANT	0	I/E Stability
CASPEED	IQUANT	3	Control Amp Speed
CONVENTION	IQUANT	1	Current Convention
ICHRANGE	IQUANT	2	Ich Range
ICHRANGEMODE	TOGGLE	F	Ich Auto Range
ICHOFFSETENABLE	TOGGLE	T	Ich Offset Enable
ICHOFFSET	QUANT	0	Ich Offset (V)
ICHFILTER	IQUANT	4	Ich Filter
VCHRANGE	IQUANT	2	Vch Range
VCHRANGEMODE	TOGGLE	F	Vch Auto Range
VCHOFFSETENABLE	TOGGLE	T	Vch Offset Enable
VCHOFFSET	QUANT	0	Vch Offset (V)
VCHFILTER	IQUANT	4	Vch Filter
IERANGELOWERLIMIT	IQUANT	4	I/E Range Lower Limit
IERANGEMODE	TOGGLE	F	I/E AutoRange
IERANGE	IQUANT	5	I/E Range
ACHSELECT	IQUANT	0	Ach Select
ACHRANGE	IQUANT	2	Ach Range
ACHOFFSETENABLE	TOGGLE	F	Ach Offset Enable
ACHOFFSET	QUANT	0	Ach Offset (V)
ACHFILTER	IQUANT	4	Ach Filter
CABLEID	IQUANT	14	Cable ID
DCCALDATE	LABEL	5/11/2025	DC Calibration Date
ACCALDATE	LABEL	8/25/2015	AC Calibration Date
FRAMEWORKVERSION	QUANT	7.03	Framework Version
INSTRUMENTVERSION	LABEL	4.15	Instrument Version
ZCURVE	TABLE
	Pt	Time	Freq	Zreal	Zimag	Zsig	Zmod	Zphz	Idc	Vdc	IERange
	#	s	Hz	ohm	ohm	V	ohm	°	A	V	#
	0	0	502.2321	1585.36	-1.022672	1	1585.361	-0.0369599	3.361714E-007	0.0004029	8
	1	2	395.3313	1589.799	-0.7007642	1	1589.799	-0.0252553	3.023664E-007	0.0003605	8
	2	3	315.5048	1586.666	-0.7259523	1	1586.666	-0.0262147	2.918009E-007	0.0003335	8
	3	4	249.3351	1584.094	-2.749583	1	1584.097	-0.0994507	2.706622E-007	0.0003043	8
	4	5	198.6229	1586.122	-0.1854478	1	1586.122	-0.006699	2.58689E-007	0.0002705	8
	5	6	158.0056	1587.491	-0.5406924	1	1587.491	-0.0195147	2.382539E-007	0.0002553	8
	6	8	125.558	1582.914	-0.0127616	1	1582.914	-0.0004619	2.250121E-007	0.0002341	8
	7	9	99.734	1583.171	0.0431974	1	1583.171	0.0015633	3.005088E-008	-7.817546E-005	8
	8	10	79.44915	1584.206	-0.5691614	1	1584.206	-0.0205848	1.973161E-008	-0.0001022	8
	9	11	62.91946	1578.072	1.907984	1	1578.073	0.069274	1.452328E-008	-0.0001096	8
	10	13	49.86702	1593.424	12.85412	1	1593.476	0.4621938	4.962613E-009	-0.0001219	8
	11	14	38.42213	1585.544	-1.510118	1	1585.545	-0.0545701	-1.129091E-009	-0.0001333	8
	12	15	31.25	1584.88	-2.320601	1	1584.882	-0.0838931	-1.273711E-008	-0.0001371	8
	13	16	24.93351	1580.146	-0.0042874	1	1580.146	-0.0001555	-1.338327E-008	-0.0001487	8
	14	18	20.03205	1580.454	-0.5485215	1	1580.454	-0.0198854	-1.685998E-008	-0.0001591	8
	15	19	15.625	1572.446	0.469738	1	1572.446	0.017116	-3.135489E-008	-0.0001592	8
	16	21	12.46675	1577.036	0.0089864	1	1577.036	0.0003265	-2.786472E-008	-0.0001719	8
	17	22	9.9734	1573.976	0.1129473	1	1573.976	0.0041115	-2.968852E-008	-0.0001775	8
	18	24	7.971939	1573.926	-0.4274311	1	1573.926	-0.0155598	-3.753165E-008	-0.0001835	8
	19	26	6.351626	1574.383	-0.415858	1	1574.383	-0.0151341	-3.416119E-008	-0.0001894	8
	20	28	5.013369	1577.521	-0.1006079	1	1577.521	-0.0036541	-4.494266E-008	-0.0001891	8
	21	30	3.985969	1577.462	-0.4786223	1	1577.463	-0.0173843	-4.128292E-008	-0.0001976	8
	22	32	3.175813	1575.982	0.0963435	1	1575.982	0.0035026	-5.083094E-008	-0.0002025	8
	23	35	2.485419	1566.571	0.1057767	1	1566.571	0.0038687	-5.214374E-008	-0.0002064	8
	24	38	1.99553	1561.975	-0.250961	1	1561.975	-0.0092057	-5.552643E-008	-0.0002083	8
	25	42	1.583615	1563.916	0.1708158	1	1563.916	0.006258	-5.042292E-008	-0.0002108	8
	26	47	1.258052	1562.62	-0.1368872	1	1562.62	-0.0050192	-5.345834E-008	-0.0002141	8
	27	52	0.997765	1559.159	0.0737952	1	1559.159	0.0027118	-5.759436E-008	-0.0002153	8
	28	58	0.7927448	1557.005	-0.541218	1	1557.005	-0.0199161	-5.322166E-008	-0.0002172	8
	29	64	0.6300403	1547.829	0.449571	1	1547.829	0.0166417	-6.329945E-008	-0.0002189	8
	30	72	0.5008013	1546.084	-0.067201	1	1546.084	-0.0024904	-5.171101E-008	-0.0002196	8
	31	81	0.3985969	1541.772	0.2874568	1	1541.772	0.0106826	-6.020063E-008	-0.0002202	8
	32	92	0.316723	1542.293	0.5456002	1	1542.294	0.0202689	-6.193634E-008	-0.0002212	8
	33	106	0.2514753	1536.183	-0.374964	1	1536.183	-0.0139852	-5.581277E-008	-0.0002213	8
	34	123	0.1992985	1529.908	0.3895523	1	1529.908	0.0145889	-5.415084E-008	-0.0002215	8
	35	144	0.1583615	1523.594	0.99638	1	1523.595	0.0374695	-6.652634E-008	-0.0002225	8
	36	169	0.1257377	1512.206	0.3338608	1	1512.206	0.0126496	-5.589311E-008	-0.0002245	8
	37	199	0.099819	1499.911	-0.3423562	1	1499.911	-0.0130778	-5.883245E-008	-0.0002247	8
	38	230	0.0792879	1489.69	0.2885134	1	1489.69	0.0110967	-5.906935E-008	-0.0002239	8
	39	269	0.063004	1477.18	0.7348807	1	1477.18	0.028504	-4.655435E-008	-0.0002252	8
	40	318	0.0500374	1471.543	0.4488808	1	1471.543	0.0174776	-6.345062E-008	-0.000224	8
	41	379	0.0397246	1461.761	-0.1507352	1	1461.761	-0.0059083	-6.404272E-008	-0.0002231	8
	42	456	0.0315529	1447.28	-0.2060024	1	1447.28	-0.0081553	-5.49978E-008	-0.0002232	8
	43	552	0.0250615	1424.298	-0.0965645	1	1424.298	-0.0038845	-5.624231E-008	-0.0002219	8
	44	673	0.0199095	1405.628	1.11559	1	1405.628	0.0454733	-5.711746E-008	-0.000221	8
	45	825	0.0158148	1390.107	1.511744	1	1390.108	0.0623092	-6.220279E-008	-0.0002188	8
	46	1016	0.0125603	1360.35	1.059259	1	1360.35	0.0446143	-7.561862E-008	-0.0002166	8
	47	1256	0.0099768	1336.911	-0.0361271	1	1336.911	-0.0015483	-4.308936E-008	-0.0002147	8
